! Sonnet Data File
! From: em Version : 14.52
! From Project: Demo1
! Data is De-embedded 
! Data File Written: 09/12/2018 21:58:52
!< HDATE 9/12/2018 21:58:48
!< MDATE 9/12/2018 21:58:48
# GHZ S MA R 50.00000
1.00000000 0.003807 89.749 0.999993 -0.251 0.999993 -0.251 0.003807 89.749
!< P1 F=1.0 Eeff=(undefined: sl) Z0=(undefined: sl) R=0.0 C=0.0 
!< P2 F=1.0 Eeff=(undefined: sl) Z0=(undefined: sl) R=0.0 C=0.0 
1.02500000 0.003902 89.743 0.999992 -0.257 0.999992 -0.257 0.003902 89.743
1.05000000 0.003997 89.736 0.999992 -0.264 0.999992 -0.264 0.003997 89.736
1.07500000 0.004092 89.730 0.999992 -0.270 0.999992 -0.270 0.004092 89.730
1.10000000 0.004188 89.724 0.999991 -0.276 0.999991 -0.276 0.004188 89.724
1.12500000 0.004283 89.717 0.999991 -0.282 0.999991 -0.282 0.004283 89.717
1.15000000 0.004378 89.711 0.999990 -0.289 0.999990 -0.289 0.004378 89.711
1.17500000 0.004473 89.705 0.999990 -0.295 0.999990 -0.295 0.004473 89.705
1.20000000 0.004568 89.699 0.999990 -0.301 0.999990 -0.301 0.004568 89.699
1.22500000 0.004664 89.692 0.999989 -0.307 0.999989 -0.307 0.004664 89.692
1.25000000 0.004759 89.686 0.999989 -0.314 0.999989 -0.314 0.004759 89.686
1.27500000 0.004854 89.680 0.999988 -0.320 0.999988 -0.320 0.004854 89.680
1.30000000 0.004949 89.673 0.999988 -0.326 0.999988 -0.326 0.004949 89.673
1.32500000 0.005044 89.667 0.999987 -0.333 0.999987 -0.333 0.005044 89.667
1.35000000 0.005140 89.661 0.999987 -0.339 0.999987 -0.339 0.005140 89.661
1.37500000 0.005235 89.655 0.999986 -0.345 0.999986 -0.345 0.005235 89.655
1.40000000 0.005330 89.648 0.999986 -0.351 0.999986 -0.351 0.005330 89.648
1.42500000 0.005425 89.642 0.999985 -0.358 0.999985 -0.358 0.005425 89.642
1.45000000 0.005520 89.636 0.999985 -0.364 0.999985 -0.364 0.005520 89.636
1.47500000 0.005616 89.629 0.999984 -0.370 0.999984 -0.370 0.005616 89.629
1.50000000 0.005711 89.623 0.999984 -0.377 0.999984 -0.377 0.005711 89.623
1.52500000 0.005806 89.617 0.999983 -0.383 0.999983 -0.383 0.005806 89.617
1.55000000 0.005901 89.611 0.999983 -0.389 0.999983 -0.389 0.005901 89.611
1.57500000 0.005996 89.604 0.999982 -0.395 0.999982 -0.395 0.005996 89.604
1.60000000 0.006092 89.598 0.999981 -0.402 0.999981 -0.402 0.006092 89.598
1.62500000 0.006187 89.592 0.999981 -0.408 0.999981 -0.408 0.006187 89.592
1.65000000 0.006282 89.585 0.999980 -0.414 0.999980 -0.414 0.006282 89.585
1.67500000 0.006377 89.579 0.999980 -0.420 0.999980 -0.420 0.006377 89.579
1.70000000 0.006472 89.573 0.999979 -0.427 0.999979 -0.427 0.006472 89.573
1.72500000 0.006567 89.567 0.999978 -0.433 0.999978 -0.433 0.006567 89.567
1.75000000 0.006663 89.560 0.999978 -0.439 0.999978 -0.439 0.006663 89.560
1.77500000 0.006758 89.554 0.999977 -0.446 0.999977 -0.446 0.006758 89.554
1.80000000 0.006853 89.548 0.999977 -0.452 0.999977 -0.452 0.006853 89.548
1.82500000 0.006948 89.541 0.999976 -0.458 0.999976 -0.458 0.006948 89.541
1.85000000 0.007043 89.535 0.999975 -0.464 0.999975 -0.464 0.007043 89.535
1.87500000 0.007139 89.529 0.999975 -0.471 0.999975 -0.471 0.007139 89.529
1.90000000 0.007234 89.523 0.999974 -0.477 0.999974 -0.477 0.007234 89.523
1.92500000 0.007329 89.516 0.999973 -0.483 0.999973 -0.483 0.007329 89.516
1.95000000 0.007424 89.510 0.999972 -0.489 0.999972 -0.489 0.007424 89.510
1.97500000 0.007519 89.504 0.999972 -0.496 0.999972 -0.496 0.007519 89.504
2.00000000 0.007614 89.498 0.999971 -0.502 0.999971 -0.502 0.007614 89.498
2.02500000 0.007710 89.491 0.999970 -0.508 0.999970 -0.508 0.007710 89.491
2.05000000 0.007805 89.485 0.999970 -0.515 0.999970 -0.515 0.007805 89.485
2.07500000 0.007900 89.479 0.999969 -0.521 0.999969 -0.521 0.007900 89.479
2.10000000 0.007995 89.472 0.999968 -0.527 0.999968 -0.527 0.007995 89.472
2.12500000 0.008090 89.466 0.999967 -0.533 0.999967 -0.533 0.008090 89.466
2.15000000 0.008185 89.460 0.999967 -0.540 0.999967 -0.540 0.008185 89.460
2.17500000 0.008281 89.454 0.999966 -0.546 0.999966 -0.546 0.008281 89.454
2.20000000 0.008376 89.447 0.999965 -0.552 0.999965 -0.552 0.008376 89.447
2.22500000 0.008471 89.441 0.999964 -0.558 0.999964 -0.558 0.008471 89.441
2.25000000 0.008566 89.435 0.999963 -0.565 0.999963 -0.565 0.008566 89.435
2.27500000 0.008661 89.429 0.999962 -0.571 0.999962 -0.571 0.008661 89.429
2.30000000 0.008757 89.422 0.999962 -0.577 0.999962 -0.577 0.008757 89.422
2.32500000 0.008852 89.416 0.999961 -0.584 0.999961 -0.584 0.008852 89.416
2.35000000 0.008947 89.410 0.999960 -0.590 0.999960 -0.590 0.008947 89.410
2.37500000 0.009042 89.403 0.999959 -0.596 0.999959 -0.596 0.009042 89.403
2.40000000 0.009137 89.397 0.999958 -0.602 0.999958 -0.602 0.009137 89.397
2.42500000 0.009232 89.391 0.999957 -0.609 0.999957 -0.609 0.009232 89.391
2.45000000 0.009328 89.385 0.999957 -0.615 0.999957 -0.615 0.009328 89.385
2.47500000 0.009423 89.378 0.999956 -0.621 0.999956 -0.621 0.009423 89.378
2.50000000 0.009518 89.372 0.999955 -0.627 0.999955 -0.627 0.009518 89.372
2.52500000 0.009613 89.366 0.999954 -0.634 0.999954 -0.634 0.009613 89.366
2.55000000 0.009708 89.360 0.999953 -0.640 0.999953 -0.640 0.009708 89.360
2.57500000 0.009803 89.353 0.999952 -0.646 0.999952 -0.646 0.009803 89.353
2.60000000 0.009898 89.347 0.999951 -0.653 0.999951 -0.653 0.009898 89.347
2.62500000 0.009994 89.341 0.999950 -0.659 0.999950 -0.659 0.009994 89.341
2.65000000 0.010089 89.334 0.999949 -0.665 0.999949 -0.665 0.010089 89.334
2.67500000 0.010184 89.328 0.999948 -0.671 0.999948 -0.671 0.010184 89.328
2.70000000 0.010279 89.322 0.999947 -0.678 0.999947 -0.678 0.010279 89.322
2.72500000 0.010374 89.316 0.999946 -0.684 0.999946 -0.684 0.010374 89.316
2.75000000 0.010469 89.309 0.999945 -0.690 0.999945 -0.690 0.010469 89.309
2.77500000 0.010565 89.303 0.999944 -0.697 0.999944 -0.697 0.010565 89.303
2.80000000 0.010660 89.297 0.999943 -0.703 0.999943 -0.703 0.010660 89.297
2.82500000 0.010755 89.291 0.999942 -0.709 0.999942 -0.709 0.010755 89.291
2.85000000 0.010850 89.284 0.999941 -0.715 0.999941 -0.715 0.010850 89.284
2.87500000 0.010945 89.278 0.999940 -0.722 0.999940 -0.722 0.010945 89.278
2.90000000 0.011040 89.272 0.999939 -0.728 0.999939 -0.728 0.011040 89.272
2.92500000 0.011136 89.265 0.999938 -0.734 0.999938 -0.734 0.011136 89.265
2.95000000 0.011231 89.259 0.999937 -0.740 0.999937 -0.740 0.011231 89.259
2.97500000 0.011326 89.253 0.999936 -0.747 0.999936 -0.747 0.011326 89.253
3.00000000 0.011421 89.247 0.999935 -0.753 0.999935 -0.753 0.011421 89.247
3.02500000 0.011516 89.240 0.999934 -0.759 0.999934 -0.759 0.011516 89.240
3.05000000 0.011611 89.234 0.999933 -0.766 0.999933 -0.766 0.011611 89.234
3.07500000 0.011706 89.228 0.999931 -0.772 0.999931 -0.772 0.011706 89.228
3.10000000 0.011802 89.222 0.999930 -0.778 0.999930 -0.778 0.011802 89.222
3.12500000 0.011897 89.215 0.999929 -0.784 0.999929 -0.784 0.011897 89.215
3.15000000 0.011992 89.209 0.999928 -0.791 0.999928 -0.791 0.011992 89.209
3.17500000 0.012087 89.203 0.999927 -0.797 0.999927 -0.797 0.012087 89.203
3.20000000 0.012182 89.196 0.999926 -0.803 0.999926 -0.803 0.012182 89.196
3.22500000 0.012277 89.190 0.999925 -0.809 0.999925 -0.809 0.012277 89.190
3.25000000 0.012372 89.184 0.999923 -0.816 0.999923 -0.816 0.012372 89.184
3.27500000 0.012468 89.178 0.999922 -0.822 0.999922 -0.822 0.012468 89.178
3.30000000 0.012563 89.171 0.999921 -0.828 0.999921 -0.828 0.012563 89.171
3.32500000 0.012658 89.165 0.999920 -0.835 0.999920 -0.835 0.012658 89.165
3.35000000 0.012753 89.159 0.999919 -0.841 0.999919 -0.841 0.012753 89.159
3.37500000 0.012848 89.153 0.999917 -0.847 0.999917 -0.847 0.012848 89.153
3.40000000 0.012943 89.146 0.999916 -0.853 0.999916 -0.853 0.012943 89.146
3.42500000 0.013038 89.140 0.999915 -0.860 0.999915 -0.860 0.013038 89.140
3.45000000 0.013134 89.134 0.999914 -0.866 0.999914 -0.866 0.013134 89.134
3.47500000 0.013229 89.128 0.999913 -0.872 0.999913 -0.872 0.013229 89.128
3.50000000 0.013324 89.121 0.999911 -0.878 0.999911 -0.878 0.013324 89.121
3.52500000 0.013419 89.115 0.999910 -0.885 0.999910 -0.885 0.013419 89.115
3.55000000 0.013514 89.109 0.999909 -0.891 0.999909 -0.891 0.013514 89.109
3.57500000 0.013609 89.102 0.999907 -0.897 0.999907 -0.897 0.013609 89.102
3.60000000 0.013704 89.096 0.999906 -0.904 0.999906 -0.904 0.013704 89.096
3.62500000 0.013800 89.090 0.999905 -0.910 0.999905 -0.910 0.013800 89.090
3.65000000 0.013895 89.084 0.999903 -0.916 0.999903 -0.916 0.013895 89.084
3.67500000 0.013990 89.077 0.999902 -0.922 0.999902 -0.922 0.013990 89.077
3.70000000 0.014085 89.071 0.999901 -0.929 0.999901 -0.929 0.014085 89.071
3.72500000 0.014180 89.065 0.999899 -0.935 0.999899 -0.935 0.014180 89.065
3.75000000 0.014275 89.059 0.999898 -0.941 0.999898 -0.941 0.014275 89.059
3.77500000 0.014370 89.052 0.999897 -0.947 0.999897 -0.947 0.014370 89.052
3.80000000 0.014466 89.046 0.999895 -0.954 0.999895 -0.954 0.014466 89.046
3.82500000 0.014561 89.040 0.999894 -0.960 0.999894 -0.960 0.014561 89.040
3.85000000 0.014656 89.033 0.999893 -0.966 0.999893 -0.966 0.014656 89.033
3.87500000 0.014751 89.027 0.999891 -0.973 0.999891 -0.973 0.014751 89.027
3.90000000 0.014846 89.021 0.999890 -0.979 0.999890 -0.979 0.014846 89.021
3.92500000 0.014941 89.015 0.999888 -0.985 0.999888 -0.985 0.014941 89.015
3.95000000 0.015036 89.008 0.999887 -0.991 0.999887 -0.991 0.015036 89.008
3.97500000 0.015131 89.002 0.999886 -0.998 0.999886 -0.998 0.015131 89.002
4.00000000 0.015227 88.996 0.999884 -1.004 0.999884 -1.004 0.015227 88.996
4.02500000 0.015322 88.990 0.999883 -1.010 0.999883 -1.010 0.015322 88.990
4.05000000 0.015417 88.983 0.999881 -1.016 0.999881 -1.016 0.015417 88.983
4.07500000 0.015512 88.977 0.999880 -1.023 0.999880 -1.023 0.015512 88.977
4.10000000 0.015607 88.971 0.999878 -1.029 0.999878 -1.029 0.015607 88.971
4.12500000 0.015702 88.965 0.999877 -1.035 0.999877 -1.035 0.015702 88.965
4.15000000 0.015797 88.958 0.999875 -1.042 0.999875 -1.042 0.015797 88.958
4.17500000 0.015892 88.952 0.999874 -1.048 0.999874 -1.048 0.015892 88.952
4.20000000 0.015988 88.946 0.999872 -1.054 0.999872 -1.054 0.015988 88.946
4.22500000 0.016083 88.939 0.999871 -1.060 0.999871 -1.060 0.016083 88.939
4.25000000 0.016178 88.933 0.999869 -1.067 0.999869 -1.067 0.016178 88.933
4.27500000 0.016273 88.927 0.999868 -1.073 0.999868 -1.073 0.016273 88.927
4.30000000 0.016368 88.921 0.999866 -1.079 0.999866 -1.079 0.016368 88.921
4.32500000 0.016463 88.914 0.999864 -1.085 0.999864 -1.085 0.016463 88.914
4.35000000 0.016558 88.908 0.999863 -1.092 0.999863 -1.092 0.016558 88.908
4.37500000 0.016653 88.902 0.999861 -1.098 0.999861 -1.098 0.016653 88.902
4.40000000 0.016748 88.896 0.999860 -1.104 0.999860 -1.104 0.016748 88.896
4.42500000 0.016844 88.889 0.999858 -1.111 0.999858 -1.111 0.016844 88.889
4.45000000 0.016939 88.883 0.999857 -1.117 0.999857 -1.117 0.016939 88.883
4.47500000 0.017034 88.877 0.999855 -1.123 0.999855 -1.123 0.017034 88.877
4.50000000 0.017129 88.870 0.999853 -1.129 0.999853 -1.129 0.017129 88.870
4.52500000 0.017224 88.864 0.999852 -1.136 0.999852 -1.136 0.017224 88.864
4.55000000 0.017319 88.858 0.999850 -1.142 0.999850 -1.142 0.017319 88.858
4.57500000 0.017414 88.852 0.999848 -1.148 0.999848 -1.148 0.017414 88.852
4.60000000 0.017509 88.845 0.999847 -1.154 0.999847 -1.154 0.017509 88.845
4.62500000 0.017604 88.839 0.999845 -1.161 0.999845 -1.161 0.017604 88.839
4.65000000 0.017700 88.833 0.999843 -1.167 0.999843 -1.167 0.017700 88.833
4.67500000 0.017795 88.827 0.999842 -1.173 0.999842 -1.173 0.017795 88.827
4.70000000 0.017890 88.820 0.999840 -1.180 0.999840 -1.180 0.017890 88.820
4.72500000 0.017985 88.814 0.999838 -1.186 0.999838 -1.186 0.017985 88.814
4.75000000 0.018080 88.808 0.999837 -1.192 0.999837 -1.192 0.018080 88.808
4.77500000 0.018175 88.802 0.999835 -1.198 0.999835 -1.198 0.018175 88.802
4.80000000 0.018270 88.795 0.999833 -1.205 0.999833 -1.205 0.018270 88.795
4.82500000 0.018365 88.789 0.999831 -1.211 0.999831 -1.211 0.018365 88.789
4.85000000 0.018460 88.783 0.999830 -1.217 0.999830 -1.217 0.018460 88.783
4.87500000 0.018556 88.776 0.999828 -1.223 0.999828 -1.223 0.018556 88.776
4.90000000 0.018651 88.770 0.999826 -1.230 0.999826 -1.230 0.018651 88.770
4.92500000 0.018746 88.764 0.999824 -1.236 0.999824 -1.236 0.018746 88.764
4.95000000 0.018841 88.758 0.999823 -1.242 0.999823 -1.242 0.018841 88.758
4.97500000 0.018936 88.751 0.999821 -1.249 0.999821 -1.249 0.018936 88.751
5.00000000 0.019031 88.745 0.999819 -1.255 0.999819 -1.255 0.019031 88.745
5.02500000 0.019126 88.739 0.999817 -1.261 0.999817 -1.261 0.019126 88.739
5.05000000 0.019221 88.733 0.999815 -1.267 0.999815 -1.267 0.019221 88.733
5.07500000 0.019316 88.726 0.999813 -1.274 0.999813 -1.274 0.019316 88.726
5.10000000 0.019411 88.720 0.999812 -1.280 0.999812 -1.280 0.019411 88.720
5.12500000 0.019507 88.714 0.999810 -1.286 0.999810 -1.286 0.019507 88.714
5.15000000 0.019602 88.707 0.999808 -1.292 0.999808 -1.292 0.019602 88.707
5.17500000 0.019697 88.701 0.999806 -1.299 0.999806 -1.299 0.019697 88.701
5.20000000 0.019792 88.695 0.999804 -1.305 0.999804 -1.305 0.019792 88.695
5.22500000 0.019887 88.689 0.999802 -1.311 0.999802 -1.311 0.019887 88.689
5.25000000 0.019982 88.682 0.999800 -1.318 0.999800 -1.318 0.019982 88.682
5.27500000 0.020077 88.676 0.999798 -1.324 0.999798 -1.324 0.020077 88.676
5.30000000 0.020172 88.670 0.999797 -1.330 0.999797 -1.330 0.020172 88.670
5.32500000 0.020267 88.664 0.999795 -1.336 0.999795 -1.336 0.020267 88.664
5.35000000 0.020362 88.657 0.999793 -1.343 0.999793 -1.343 0.020362 88.657
5.37500000 0.020458 88.651 0.999791 -1.349 0.999791 -1.349 0.020458 88.651
5.40000000 0.020553 88.645 0.999789 -1.355 0.999789 -1.355 0.020553 88.645
5.42500000 0.020648 88.638 0.999787 -1.361 0.999787 -1.361 0.020648 88.638
5.45000000 0.020743 88.632 0.999785 -1.368 0.999785 -1.368 0.020743 88.632
5.47500000 0.020838 88.626 0.999783 -1.374 0.999783 -1.374 0.020838 88.626
5.50000000 0.020933 88.620 0.999781 -1.380 0.999781 -1.380 0.020933 88.620
!< P1 F=5.5 Eeff=(1.0698909 0.0) Z0=(188.844695 0.0) R=0.0 C=6.40767e-4 
!< P2 F=5.5 Eeff=(1.0698909 0.0) Z0=(188.844695 0.0) R=0.0 C=6.40767e-4 
5.52500000 0.021028 88.613 0.999779 -1.387 0.999779 -1.387 0.021028 88.613
5.55000000 0.021123 88.607 0.999777 -1.393 0.999777 -1.393 0.021123 88.607
5.57500000 0.021218 88.601 0.999775 -1.399 0.999775 -1.399 0.021218 88.601
5.60000000 0.021313 88.595 0.999773 -1.405 0.999773 -1.405 0.021313 88.595
5.62500000 0.021408 88.588 0.999771 -1.412 0.999771 -1.412 0.021408 88.588
5.65000000 0.021504 88.582 0.999769 -1.418 0.999769 -1.418 0.021504 88.582
5.67500000 0.021599 88.576 0.999767 -1.424 0.999767 -1.424 0.021599 88.576
5.70000000 0.021694 88.570 0.999765 -1.430 0.999765 -1.430 0.021694 88.570
5.72500000 0.021789 88.563 0.999763 -1.437 0.999763 -1.437 0.021789 88.563
5.75000000 0.021884 88.557 0.999761 -1.443 0.999761 -1.443 0.021884 88.557
5.77500000 0.021979 88.551 0.999758 -1.449 0.999758 -1.449 0.021979 88.551
5.80000000 0.022074 88.544 0.999756 -1.456 0.999756 -1.456 0.022074 88.544
5.82500000 0.022169 88.538 0.999754 -1.462 0.999754 -1.462 0.022169 88.538
5.85000000 0.022264 88.532 0.999752 -1.468 0.999752 -1.468 0.022264 88.532
5.87500000 0.022359 88.526 0.999750 -1.474 0.999750 -1.474 0.022359 88.526
5.90000000 0.022454 88.519 0.999748 -1.481 0.999748 -1.481 0.022454 88.519
5.92500000 0.022549 88.513 0.999746 -1.487 0.999746 -1.487 0.022549 88.513
5.95000000 0.022644 88.507 0.999744 -1.493 0.999744 -1.493 0.022644 88.507
5.97500000 0.022740 88.501 0.999741 -1.499 0.999741 -1.499 0.022740 88.501
6.00000000 0.022835 88.494 0.999739 -1.506 0.999739 -1.506 0.022835 88.494
6.02500000 0.022930 88.488 0.999737 -1.512 0.999737 -1.512 0.022930 88.488
6.05000000 0.023025 88.482 0.999735 -1.518 0.999735 -1.518 0.023025 88.482
6.07500000 0.023120 88.475 0.999733 -1.525 0.999733 -1.525 0.023120 88.475
6.10000000 0.023215 88.469 0.999730 -1.531 0.999730 -1.531 0.023215 88.469
6.12500000 0.023310 88.463 0.999728 -1.537 0.999728 -1.537 0.023310 88.463
6.15000000 0.023405 88.457 0.999726 -1.543 0.999726 -1.543 0.023405 88.457
6.17500000 0.023500 88.450 0.999724 -1.550 0.999724 -1.550 0.023500 88.450
6.20000000 0.023595 88.444 0.999722 -1.556 0.999722 -1.556 0.023595 88.444
6.22500000 0.023690 88.438 0.999719 -1.562 0.999719 -1.562 0.023690 88.438
6.25000000 0.023785 88.432 0.999717 -1.568 0.999717 -1.568 0.023785 88.432
6.27500000 0.023880 88.425 0.999715 -1.575 0.999715 -1.575 0.023880 88.425
6.30000000 0.023976 88.419 0.999713 -1.581 0.999713 -1.581 0.023976 88.419
6.32500000 0.024071 88.413 0.999710 -1.587 0.999710 -1.587 0.024071 88.413
6.35000000 0.024166 88.407 0.999708 -1.594 0.999708 -1.594 0.024166 88.407
6.37500000 0.024261 88.400 0.999706 -1.600 0.999706 -1.600 0.024261 88.400
6.40000000 0.024356 88.394 0.999703 -1.606 0.999703 -1.606 0.024356 88.394
6.42500000 0.024451 88.388 0.999701 -1.612 0.999701 -1.612 0.024451 88.388
6.45000000 0.024546 88.381 0.999699 -1.619 0.999699 -1.619 0.024546 88.381
6.47500000 0.024641 88.375 0.999696 -1.625 0.999696 -1.625 0.024641 88.375
6.50000000 0.024736 88.369 0.999694 -1.631 0.999694 -1.631 0.024736 88.369
6.52500000 0.024831 88.363 0.999692 -1.637 0.999692 -1.637 0.024831 88.363
6.55000000 0.024926 88.356 0.999689 -1.644 0.999689 -1.644 0.024926 88.356
6.57500000 0.025021 88.350 0.999687 -1.650 0.999687 -1.650 0.025021 88.350
6.60000000 0.025116 88.344 0.999685 -1.656 0.999685 -1.656 0.025116 88.344
6.62500000 0.025211 88.338 0.999682 -1.663 0.999682 -1.663 0.025211 88.338
6.65000000 0.025306 88.331 0.999680 -1.669 0.999680 -1.669 0.025306 88.331
6.67500000 0.025401 88.325 0.999677 -1.675 0.999677 -1.675 0.025401 88.325
6.70000000 0.025497 88.319 0.999675 -1.681 0.999675 -1.681 0.025497 88.319
6.72500000 0.025592 88.312 0.999672 -1.688 0.999672 -1.688 0.025592 88.312
6.75000000 0.025687 88.306 0.999670 -1.694 0.999670 -1.694 0.025687 88.306
6.77500000 0.025782 88.300 0.999668 -1.700 0.999668 -1.700 0.025782 88.300
6.80000000 0.025877 88.294 0.999665 -1.706 0.999665 -1.706 0.025877 88.294
6.82500000 0.025972 88.287 0.999663 -1.713 0.999663 -1.713 0.025972 88.287
6.85000000 0.026067 88.281 0.999660 -1.719 0.999660 -1.719 0.026067 88.281
6.87500000 0.026162 88.275 0.999658 -1.725 0.999658 -1.725 0.026162 88.275
6.90000000 0.026257 88.269 0.999655 -1.732 0.999655 -1.732 0.026257 88.269
6.92500000 0.026352 88.262 0.999653 -1.738 0.999653 -1.738 0.026352 88.262
6.95000000 0.026447 88.256 0.999650 -1.744 0.999650 -1.744 0.026447 88.256
6.97500000 0.026542 88.250 0.999648 -1.750 0.999648 -1.750 0.026542 88.250
7.00000000 0.026637 88.244 0.999645 -1.757 0.999645 -1.757 0.026637 88.244
7.02500000 0.026732 88.237 0.999643 -1.763 0.999643 -1.763 0.026732 88.237
7.05000000 0.026827 88.231 0.999640 -1.769 0.999640 -1.769 0.026827 88.231
7.07500000 0.026922 88.225 0.999638 -1.775 0.999638 -1.775 0.026922 88.225
7.10000000 0.027017 88.218 0.999635 -1.782 0.999635 -1.782 0.027017 88.218
7.12500000 0.027112 88.212 0.999632 -1.788 0.999632 -1.788 0.027112 88.212
7.15000000 0.027207 88.206 0.999630 -1.794 0.999630 -1.794 0.027207 88.206
7.17500000 0.027303 88.200 0.999627 -1.800 0.999627 -1.800 0.027303 88.200
7.20000000 0.027398 88.193 0.999625 -1.807 0.999625 -1.807 0.027398 88.193
7.22500000 0.027493 88.187 0.999622 -1.813 0.999622 -1.813 0.027493 88.187
7.25000000 0.027588 88.181 0.999619 -1.819 0.999619 -1.819 0.027588 88.181
7.27500000 0.027683 88.175 0.999617 -1.826 0.999617 -1.826 0.027683 88.175
7.30000000 0.027778 88.168 0.999614 -1.832 0.999614 -1.832 0.027778 88.168
7.32500000 0.027873 88.162 0.999611 -1.838 0.999611 -1.838 0.027873 88.162
7.35000000 0.027968 88.156 0.999609 -1.844 0.999609 -1.844 0.027968 88.156
7.37500000 0.028063 88.149 0.999606 -1.851 0.999606 -1.851 0.028063 88.149
7.40000000 0.028158 88.143 0.999603 -1.857 0.999603 -1.857 0.028158 88.143
7.42500000 0.028253 88.137 0.999601 -1.863 0.999601 -1.863 0.028253 88.137
7.45000000 0.028348 88.131 0.999598 -1.869 0.999598 -1.869 0.028348 88.131
7.47500000 0.028443 88.124 0.999595 -1.876 0.999595 -1.876 0.028443 88.124
